!freq-unit  param-type  data-format  keyword  impedance-ohms
# GHz           Y          RI           R         1
!-----------------------------------------------------------------------------
1.8000000000000e+000	1.5780329833161e-002	2.3593245326303e-003	-3.8625425722730e-003	-1.5401716616052e-002	-6.6096228430242e-003	1.0581601194166e-004	1.2602011870541e-003	4.1731354243453e-003	
                    	-3.8625427847732e-003	-1.5401717129759e-002	1.5644901461484e-002	2.3065950731667e-003	1.2536546312796e-003	4.0035969475811e-003	-6.6036334275970e-003	1.0226947652753e-004	
                    	-6.6096229151312e-003	1.0581607456974e-004	1.2529476714270e-003	4.0038179339793e-003	1.5811805283238e-002	1.5323701729422e-003	-3.5541092658181e-003	-1.4853527189329e-002	
                    	1.2608110125429e-003	4.1729499653615e-003	-6.6036333554302e-003	1.0226941610557e-004	-3.5541095010038e-003	-1.4853527755753e-002	1.5938277726889e-002	1.5787136196970e-003	
1.9000000000000e+000	1.8525712889117e-002	3.8825283344330e-003	-8.2140349928708e-003	-1.3621328375560e-002	-7.8213138958574e-003	1.2830408735880e-003	4.2600091780113e-003	2.5150033346051e-003	
                    	-8.2140355934670e-003	-1.3621328933671e-002	1.8379141820438e-002	3.8381907264444e-003	4.2025895071596e-003	2.3726694771344e-003	-7.8171960922750e-003	1.2770694560087e-003	
                    	-7.8213139319075e-003	1.2830409931586e-003	4.2018693750080e-003	2.3731451622826e-003	1.8234440517036e-002	2.8811570457563e-003	-7.7239433264651e-003	-1.3022651635037e-002	
                    	4.2606230820391e-003	2.5145855318509e-003	-7.8171960544736e-003	1.2770693395347e-003	-7.7239439897865e-003	-1.3022652248265e-002	1.8371791121619e-002	2.9226078872071e-003	
2.0000000000000e+000	2.1288552770183e-002	2.9187298734765e-003	-1.1753241931729e-002	-9.6741440185395e-003	-8.5003472831303e-003	4.6109627641129e-003	6.0460722666888e-003	-1.2880092323530e-003	
                    	-1.1753243137184e-002	-9.6741441338354e-003	2.1136709780295e-002	2.9083493494966e-003	5.9560814707670e-003	-1.3775398053530e-003	-8.4994651323917e-003	4.6035933176128e-003	
                    	-8.5003472254834e-003	4.6109629078558e-003	5.9554644986890e-003	-1.3767618757581e-003	2.0601435835099e-002	1.9620236743787e-003	-1.0973328247174e-002	-9.1937279966898e-003	
                    	6.0465784821501e-003	-1.2887033583072e-003	-8.4994651852109e-003	4.6035931758076e-003	-1.0973329574255e-002	-9.1937281181578e-003	2.0745923309189e-002	1.9728828984107e-003	
2.1000000000000e+000	2.1682764366514e-002	8.1187059510057e-004	-1.2415434335610e-002	-4.8717760748617e-003	-6.2634654947391e-003	8.6142061482466e-003	4.5204811086401e-003	-5.6839310520131e-003	
                    	-1.2415435517613e-002	-4.8717750562639e-003	2.1558957799489e-002	8.3796192596175e-004	4.4405283136776e-003	-5.7167346811011e-003	-6.2659722186230e-003	8.6076236284149e-003	
                    	-6.2634653435778e-003	8.6142062230089e-003	4.4401896072887e-003	-5.7156808306692e-003	2.0772843540236e-002	1.2826719289549e-004	-1.1470873908027e-002	-4.7269068335572e-003	
                    	4.5207103660842e-003	-5.6848728036146e-003	-6.2659723640490e-003	8.6076235510904e-003	-1.1470875200708e-002	-4.7269057062721e-003	2.0892887099749e-002	1.0321250387690e-004	
2.2000000000000e+000	2.0597014454361e-002	2.7686696180673e-004	-1.1233588324801e-002	-1.8528225094695e-003	-1.9470838346672e-003	1.0422238492282e-002	6.8657545467591e-004	-7.7844191651767e-003	
                    	-1.1233588356311e-002	-1.8528207986462e-003	2.0513967969461e-002	3.0769804210173e-004	6.4226536024832e-004	-7.7919085358777e-003	-1.9515391428546e-003	1.0417609651225e-002	
                    	-1.9470836760916e-003	1.0422238455046e-002	6.4236358507339e-004	-7.7907482639100e-003	1.9712668154540e-002	-1.7590025919567e-004	-1.0354557786319e-002	-2.0317351862344e-003	
                    	6.8637562450029e-004	-7.7854384616382e-003	-1.9515392995027e-003	1.0417609682684e-002	-1.0354557805888e-002	-2.0317333074421e-003	1.9793328288134e-002	-2.0853349077754e-004	
2.3000000000000e+000	2.0214691147077e-002	1.0157183649451e-003	-1.0447723867212e-002	-2.7079886432757e-004	2.2587072958872e-003	9.8889583660881e-003	-3.1616103258892e-003	-7.4586084923698e-003	
                    	-1.0447722676361e-002	-2.7079769743799e-004	2.0152671884691e-002	1.0312326749489e-003	-3.1746990032233e-003	-7.4694483073825e-003	2.2532911321361e-003	9.8861492396239e-003	
                    	2.2587073947927e-003	9.8889582540672e-003	-3.1741675007203e-003	-7.4684458909946e-003	1.9416334513352e-002	6.3978669444431e-004	-9.7167269207486e-003	-6.4376155839224e-004	
                    	-3.1622293491696e-003	-7.4594421101237e-003	2.2532910310056e-003	9.8861493474178e-003	-9.7167256010750e-003	-6.4376029212753e-004	1.9473190990369e-002	6.2004680300909e-004	
2.4000000000000e+000	2.0801277738464e-002	1.6135542818425e-003	-1.0349024766843e-002	1.3170995336292e-003	5.5588088028913e-003	7.8336392495501e-003	-6.1718464674115e-003	-5.5478141504104e-003	
                    	-1.0349023269931e-002	1.3170995404138e-003	2.0739710692764e-002	1.6179972635886e-003	-6.1664480980480e-003	-5.5770804677315e-003	5.5526923513866e-003	7.8325863694375e-003	
                    	5.5588088242564e-003	7.8336391148888e-003	-6.1656638946616e-003	-5.5764107650630e-003	2.0042157375150e-002	1.2323423268299e-003	-9.7514789204231e-003	8.2953055741549e-004	
                    	-6.1726982266527e-003	-5.5482890422025e-003	5.5526923273122e-003	7.8325865032711e-003	-9.7514772799286e-003	8.2953054286019e-004	2.0093942238759e-002	1.2245037279826e-003	
2.5000000000000e+000	2.1559501442469e-002	1.4635577929685e-003	-1.0142737759770e-002	3.5370682927236e-003	7.5818864575915e-003	4.7909522720620e-003	-7.9382418482550e-003	-2.6038243163687e-003	
                    	-1.0142736807956e-002	3.5370674590180e-003	2.1490945135461e-002	1.4698268482594e-003	-7.9287338375921e-003	-2.6594280362092e-003	7.5753674419937e-003	4.7920241855440e-003	
                    	7.5818864103089e-003	4.7909521566263e-003	-7.9278992944547e-003	-2.6591000066308e-003	2.0788713105885e-002	1.0628062907685e-003	-9.6565856713924e-003	2.9559154484817e-003	
                    	-7.9391177374462e-003	-2.6039341700963e-003	7.5753674886779e-003	4.7920243014394e-003	-9.6565846446654e-003	2.9559145181565e-003	2.0843651017289e-002	1.0569270317689e-003	
2.6000000000000e+000	2.1741170686970e-002	9.1477309877241e-004	-9.0590256930171e-003	6.0470775537133e-003	8.0398874056389e-003	1.4733299111232e-003	-8.1483630517010e-003	6.4576841806374e-004	
                    	-9.0590255121334e-003	6.0470765487356e-003	2.1667517297127e-002	9.3172366713645e-004	-8.1507725603327e-003	5.6230002942925e-004	8.0337477193412e-003	1.4769157262505e-003	
                    	8.0398873150698e-003	1.4733298432692e-003	-8.1500112738927e-003	5.6236453020369e-004	2.0931956945567e-002	5.0414608930183e-004	-8.6872855920033e-003	5.3692543670862e-003	
                    	-8.1491329015878e-003	6.4594119832014e-004	8.0337478107499e-003	1.4769157932330e-003	-8.6872854171017e-003	5.3692532636354e-003	2.0990093518067e-002	4.9292812112434e-004	
2.7000000000000e+000	2.1321506501983e-002	7.0878638794447e-004	-7.0291321977560e-003	8.0903130830659e-003	7.1710404120330e-003	-1.2903836024531e-003	-7.0226526046624e-003	3.3567027218377e-003	
                    	-7.0291325386826e-003	8.0903123593319e-003	2.1245033229348e-002	7.3822288289449e-004	-7.0518455029469e-003	3.2507810256504e-003	7.1663838536999e-003	-1.2843662373934e-003	
                    	7.1710403114146e-003	-1.2903836140852e-003	-7.0512081762426e-003	3.2506690275354e-003	2.0459677293933e-002	2.9371172712978e-004	-6.7982475340653e-003	7.3177695409457e-003	
                    	-7.0232594033963e-003	3.3570648278491e-003	7.1663839544209e-003	-1.2843662284598e-003	-6.7982479269975e-003	7.3177687595593e-003	2.0520722000227e-002	2.7550792582787e-004	
2.8000000000000e+000	2.0853537281627e-002	1.1979707066825e-003	-4.5460586148573e-003	9.2640374336259e-003	5.6400416252998e-003	-3.1193383038119e-003	-5.2120504503170e-003	5.1314679263605e-003	
                    	-4.5460591400211e-003	9.2640371012002e-003	2.0771148547548e-002	1.2391548011479e-003	-5.2794521956876e-003	5.0130539814680e-003	5.6378895873634e-003	-3.1115121819211e-003	
                    	5.6400415422022e-003	-3.1193382688422e-003	-5.2789499075674e-003	5.0128338471838e-003	1.9917019647561e-002	7.7925888987274e-004	-4.4918253857542e-003	8.4148494226653e-003	
                    	-5.2124776514793e-003	5.1319426425447e-003	5.6378896684425e-003	-3.1115122201212e-003	-4.4918259706032e-003	8.4148490777493e-003	1.9985331920537e-002	7.5414069494073e-004	
